
T3BA0 000:067 SEGGER J-Link V6.10i Log File (0001ms, 0031ms total)
T3BA0 000:067 DLL Compiled: Oct 25 2016 19:31:51 (0001ms, 0031ms total)
T3BA0 000:067 Logging started @ 2018-10-23 17:06 (0001ms, 0031ms total)
T3BA0 000:068 JLINK_SetWarnOutHandler(...) (0000ms, 0031ms total)
T3BA0 000:068 JLINK_OpenEx(...)
Firmware: J-Link V9 compiled Apr 20 2018 16:47:26
Hardware: V9.40
S/N: 59406746
Feature(s): RDI, GDB, FlashDL, FlashBP, JFlashWEBSRV Webserver running on local port 19080 (0020ms, 0051ms total)
T3BA0 000:068   returns O.K. (0020ms, 0051ms total)
T3BA0 000:088 JLINK_SetErrorOutHandler(...) (0000ms, 0051ms total)
T3BA0 000:088 JLINK_ExecCommand("ProjectFile = "E:\Last-time\Lesson -5_i\MDK-ARM\JLinkSettings.ini"", ...).   returns 0x00 (0095ms, 0146ms total)
T3BA0 000:183 JLINK_ExecCommand("Device = STM32F103ZE", ...). Device "STM32F103ZE" selected.  returns 0x00 (0001ms, 0147ms total)
T3BA0 000:184 JLINK_ExecCommand("DisableConnectionTimeout", ...).   returns 0x01 (0000ms, 0147ms total)
T3BA0 000:184 JLINK_GetHardwareVersion()  returns 0x16F30 (0000ms, 0147ms total)
T3BA0 000:184 JLINK_GetDLLVersion()  returns 61009 (0000ms, 0147ms total)
T3BA0 000:184 JLINK_GetFirmwareString(...) (0000ms, 0147ms total)
T3BA0 000:184 JLINK_GetDLLVersion()  returns 61009 (0000ms, 0147ms total)
T3BA0 000:184 JLINK_GetCompileDateTime() (0000ms, 0147ms total)
T3BA0 000:184 JLINK_GetFirmwareString(...) (0000ms, 0147ms total)
T3BA0 000:184 JLINK_GetHardwareVersion()  returns 0x16F30 (0000ms, 0147ms total)
T3BA0 000:184 JLINK_TIF_Select(JLINKARM_TIF_JTAG)  returns 0x00 (0001ms, 0148ms total)
T3BA0 000:185 JLINK_SetSpeed(5000) (0000ms, 0148ms total)
T3BA0 000:185 JLINK_GetIdData(...) >0x2F8 JTAG>TotalIRLen = 9, IRPrint = 0x0011 >0x30 JTAG> >0x410 JTAG> >0x40 JTAG> >0x40 JTAG> >0x40 JTAG> >0x30 JTAG> >0x40 JTAG> >0x40 JTAG> >0x40 JTAG> >0x40 JTAG> >0x40 JTAG> >0x40 JTAG> >0x40 JTAG> >0x40 JTAG> >0x40 JTAG> >0x40 JTAG> >0x40 JTAG> >0x40 JTAG> >0x40 JTAG> >0x40 JTAG> >0x40 JTAG> >0x40 JTAG> >0x40 JTAG> >0x40 JTAG> >0x40 JTAG> >0x40 JTAG> >0x40 JTAG> >0x40 JTAG> >0x40 JTAG> >0x2F8 JTAG>TotalIRLen = 9, IRPrint = 0x0011 >0x30 JTAG> >0x410 JTAG>
 >0x70 JTAG> >0x50 JTAG> >0x40 JTAG> >0x50 JTAG>AP-IDR: 0x14770011, Type: AHB-APStart searching for Cortex-M ROM table with ROMTable[0] @ 0xE00FF000.ROMTable[1]: Cortex-M ROM table found. >0x80 JTAG> >0x40 JTAG> >0x30 JTAG> >0x40 JTAG> >0x40 JTAG> >0x30 JTAG> >0x40 JTAG> >0x50 JTAG>Found Cortex-M3 r1p1, Little endian. -- CPU_ReadMem(4 bytes @ 0xE000EDF0) -- CPU_WriteMem(4 bytes @ 0xE000EDF0) -- CPU_ReadMem(4 bytes @ 0xE0002000)FPUnit: 6 code (BP) slots and 2 literal slots
 -- CPU_ReadMem(4 bytes @ 0xE000EDFC) -- CPU_WriteMem(4 bytes @ 0xE000EDFC) -- CPU_ReadMem(4 bytes @ 0xE0001000) -- CPU_WriteMem(4 bytes @ 0xE0001000) -- CPU_ReadMem(4 bytes @ 0xE000ED88) -- CPU_WriteMem(4 bytes @ 0xE000ED88) -- CPU_ReadMem(4 bytes @ 0xE000ED88) -- CPU_WriteMem(4 bytes @ 0xE000ED88)CoreSight components:ROMTbl 0 @ E00FF000 -- CPU_ReadMem(16 bytes @ 0xE00FF000) -- CPU_ReadMem(16 bytes @ 0xE000EFF0) -- CPU_ReadMem(16 bytes @ 0xE000EFE0)
ROMTbl 0 [0]: FFF0F000, CID: B105E00D, PID: 001BB000 SCS -- CPU_ReadMem(16 bytes @ 0xE0001FF0) -- CPU_ReadMem(16 bytes @ 0xE0001FE0)ROMTbl 0 [1]: FFF02000, CID: B105E00D, PID: 001BB002 DWT -- CPU_ReadMem(16 bytes @ 0xE0002FF0) -- CPU_ReadMem(16 bytes @ 0xE0002FE0)ROMTbl 0 [2]: FFF03000, CID: B105E00D, PID: 000BB003 FPB -- CPU_ReadMem(16 bytes @ 0xE0000FF0) -- CPU_ReadMem(16 bytes @ 0xE0000FE0)ROMTbl 0 [3]: FFF01000, CID: B105E00D, PID: 001BB001 ITM -- CPU_ReadMem(16 bytes @ 0xE00FF010)
 -- CPU_ReadMem(16 bytes @ 0xE0040FF0) -- CPU_ReadMem(16 bytes @ 0xE0040FE0)ROMTbl 0 [4]: FFF41000, CID: B105900D, PID: 001BB923 TPIU-Lite -- CPU_ReadMem(16 bytes @ 0xE0041FF0) -- CPU_ReadMem(16 bytes @ 0xE0041FE0)ROMTbl 0 [5]: FFF42000, CID: B105900D, PID: 101BB924 ETM-M3 ScanLen=9 NumDevices=2 aId[0]=0x3BA00477 aIrRead[0]=0 aScanLen[0]=0 aScanRead[0]=0 (0024ms, 0172ms total)
T3BA0 000:209 JLINK_JTAG_GetDeviceID(DeviceIndex = 0)  returns 0x3BA00477 (0000ms, 0172ms total)
T3BA0 000:209 JLINK_JTAG_GetDeviceInfo(DeviceIndex = 0)  returns 0x00 (0001ms, 0173ms total)
T3BA0 000:210 JLINK_JTAG_GetDeviceID(DeviceIndex = 1)  returns 0x6414041 (0000ms, 0173ms total)
T3BA0 000:210 JLINK_JTAG_GetDeviceInfo(DeviceIndex = 1)  returns 0x00 (0000ms, 0173ms total)
T3BA0 000:210 JLINK_GetDLLVersion()  returns 61009 (0000ms, 0173ms total)
T3BA0 000:210 JLINK_CORE_GetFound()  returns 0x30000FF (0000ms, 0173ms total)
T3BA0 000:210 JLINK_GetDebugInfo(0x100) -- Value=0xE00FF003  returns 0x00 (0000ms, 0173ms total)
T3BA0 000:210 JLINK_GetDebugInfo(0x100) -- Value=0xE00FF003  returns 0x00 (0000ms, 0173ms total)
T3BA0 000:210 JLINK_GetDebugInfo(0x101) -- Value=0xE0041000  returns 0x00 (0000ms, 0173ms total)
T3BA0 000:210 JLINK_GetDebugInfo(0x102) -- Value=0x00000000  returns 0x00 (0000ms, 0173ms total)
T3BA0 000:210 JLINK_GetDebugInfo(0x103) -- Value=0xE0040000  returns 0x00 (0000ms, 0173ms total)
T3BA0 000:210 JLINK_GetDebugInfo(0x104) -- Value=0xE0000000  returns 0x00 (0000ms, 0173ms total)
T3BA0 000:210 JLINK_GetDebugInfo(0x105) -- Value=0xE0001000  returns 0x00 (0000ms, 0173ms total)
T3BA0 000:210 JLINK_GetDebugInfo(0x106) -- Value=0xE0002000  returns 0x00 (0000ms, 0173ms total)
T3BA0 000:210 JLINK_GetDebugInfo(0x107) -- Value=0xE000E000  returns 0x00 (0000ms, 0173ms total)
T3BA0 000:210 JLINK_GetDebugInfo(0x10C) -- Value=0xE000EDF0  returns 0x00 (0000ms, 0173ms total)
T3BA0 000:210 JLINK_ReadMemU32(0xE000ED00, 0x0001 Items, ...) -- CPU is running -- CPU_ReadMem(4 bytes @ 0xE000ED00) - Data: 31 C2 1F 41  returns 0x01 (0000ms, 0173ms total)
T3BA0 000:210 JLINK_SetResetType(JLINKARM_RESET_TYPE_NORMAL)  returns JLINKARM_RESET_TYPE_NORMAL (0000ms, 0173ms total)
T3BA0 000:210 JLINK_Reset() -- CPU is running -- CPU_WriteMem(4 bytes @ 0xE000EDF0) -- CPU is running -- CPU_WriteMem(4 bytes @ 0xE000EDFC) -- CPU is running -- CPU_WriteMem(4 bytes @ 0xE000ED0C) -- CPU is running -- CPU_ReadMem(4 bytes @ 0xE000EDF0) -- CPU is running -- CPU_ReadMem(4 bytes @ 0xE000EDF0) -- CPU is running -- CPU_WriteMem(4 bytes @ 0xE000EDF0) -- CPU is running -- CPU_WriteMem(4 bytes @ 0xE000EDFC) -- CPU is running -- CPU_ReadMem(4 bytes @ 0xE000EDF0) >0x80 JTAG> >0x40 JTAG> >0x30 JTAG>
 >0x40 JTAG> >0x50 JTAG> >0x40 JTAG> -- CPU_WriteMem(4 bytes @ 0xE000EDFC) -- CPU_WriteMem(4 bytes @ 0xE0001028) -- CPU_WriteMem(4 bytes @ 0xE0001038) -- CPU_WriteMem(4 bytes @ 0xE0001048) -- CPU_WriteMem(4 bytes @ 0xE0001058) -- CPU_WriteMem(4 bytes @ 0xE0002000) -- CPU_ReadMem(4 bytes @ 0xE000EDFC) -- CPU_ReadMem(4 bytes @ 0xE0001000) (0028ms, 0201ms total)
T3BA0 000:239 JLINK_ReadReg(R15 (PC))  returns 0x080001DC (0000ms, 0201ms total)
T3BA0 000:239 JLINK_ReadReg(XPSR)  returns 0x01000000 (0000ms, 0201ms total)
T3BA0 000:239 JLINK_Halt()  returns 0x00 (0000ms, 0201ms total)
T3BA0 000:239 JLINK_IsHalted()  returns TRUE (0000ms, 0201ms total)
T3BA0 000:239 JLINK_ReadMemU32(0xE000EDF0, 0x0001 Items, ...) -- CPU_ReadMem(4 bytes @ 0xE000EDF0) - Data: 03 00 03 00  returns 0x01 (0000ms, 0201ms total)
T3BA0 000:239 JLINK_WriteU32(0xE000EDF0, 0xA05F0003) -- CPU_WriteMem(4 bytes @ 0xE000EDF0)  returns 0x00 (0001ms, 0202ms total)
T3BA0 000:240 JLINK_WriteU32(0xE000EDFC, 0x01000000) -- CPU_WriteMem(4 bytes @ 0xE000EDFC)  returns 0x00 (0000ms, 0202ms total)
T3BA0 000:240 JLINK_GetHWStatus(...)  returns 0x00 (0001ms, 0203ms total)
T3BA0 000:241 JLINK_GetNumBPUnits(Type = 0xFFFFFF00)  returns 0x06 (0000ms, 0203ms total)
T3BA0 000:241 JLINK_GetNumBPUnits(Type = 0xF0)  returns 0x2000 (0000ms, 0203ms total)
T3BA0 000:241 JLINK_GetNumWPUnits()  returns 0x04 (0000ms, 0203ms total)
T3BA0 000:241 JLINK_GetSpeed()  returns 0x1388 (0000ms, 0203ms total)
T3BA0 000:241 JLINK_ReadMemU32(0xE000E004, 0x0001 Items, ...) -- CPU_ReadMem(4 bytes @ 0xE000E004) - Data: 01 00 00 00  returns 0x01 (0001ms, 0204ms total)
T3BA0 000:242 JLINK_ReadMemU32(0xE000E004, 0x0001 Items, ...) -- CPU_ReadMem(4 bytes @ 0xE000E004) - Data: 01 00 00 00  returns 0x01 (0000ms, 0204ms total)
T3BA0 000:242 JLINK_WriteMem(0xE0001000, 0x001C Bytes, ...) - Data: 01 00 00 00 00 00 00 00 00 00 00 00 00 00 00 00 ... -- CPU_WriteMem(28 bytes @ 0xE0001000)  returns 0x1C (0002ms, 0206ms total)
T3BA0 000:244 JLINK_ReadMem (0xE0001000, 0x001C Bytes, ...) -- CPU_ReadMem(28 bytes @ 0xE0001000) - Data: 01 00 00 40 00 00 00 00 00 00 00 00 00 00 00 00 ...  returns 0x00 (0000ms, 0206ms total)
T3BA0 000:244 JLINK_ReadReg(R15 (PC))  returns 0x080001DC (0000ms, 0206ms total)
T3BA0 000:244 JLINK_ReadReg(XPSR)  returns 0x01000000 (0000ms, 0206ms total)
T3BA0 000:334 JLINK_SetResetType(JLINKARM_RESET_TYPE_NORMAL)  returns JLINKARM_RESET_TYPE_NORMAL (0000ms, 0206ms total)
T3BA0 000:334 JLINK_Reset() -- CPU_WriteMem(4 bytes @ 0xE000EDF0) -- CPU_WriteMem(4 bytes @ 0xE000EDFC) -- CPU_WriteMem(4 bytes @ 0xE000ED0C) -- CPU_ReadMem(4 bytes @ 0xE000EDF0) -- CPU_ReadMem(4 bytes @ 0xE000EDF0) -- CPU_WriteMem(4 bytes @ 0xE000EDF0) -- CPU_WriteMem(4 bytes @ 0xE000EDFC) -- CPU is running -- CPU_ReadMem(4 bytes @ 0xE000EDF0) >0x80 JTAG> >0x40 JTAG> >0x30 JTAG> >0x40 JTAG> >0x50 JTAG> >0x40 JTAG> -- CPU_WriteMem(4 bytes @ 0xE000EDFC) -- CPU_WriteMem(4 bytes @ 0xE0001028)
 -- CPU_WriteMem(4 bytes @ 0xE0001038) -- CPU_WriteMem(4 bytes @ 0xE0001048) -- CPU_WriteMem(4 bytes @ 0xE0001058) -- CPU_WriteMem(4 bytes @ 0xE0002000) -- CPU_ReadMem(4 bytes @ 0xE000EDFC) -- CPU_ReadMem(4 bytes @ 0xE0001000) (0028ms, 0234ms total)
T3BA0 000:362 JLINK_ReadReg(R15 (PC))  returns 0x080001DC (0000ms, 0234ms total)
T3BA0 000:362 JLINK_ReadReg(XPSR)  returns 0x01000000 (0000ms, 0234ms total)
T3BA0 000:363 JLINK_ReadMem (0x080001DC, 0x003C Bytes, ...) -- CPU_ReadMem(128 bytes @ 0x080001C0) -- Updating C cache (128 bytes @ 0x080001C0) -- Read from C cache (60 bytes @ 0x080001DC) - Data: 06 48 80 47 06 48 00 47 FE E7 FE E7 FE E7 FE E7 ...  returns 0x00 (0002ms, 0236ms total)
T3BA0 000:491 JLINK_ReadMem (0x40010C00, 0x000C Bytes, ...) -- CPU_ReadMem(12 bytes @ 0x40010C00) - Data: 44 44 48 44 44 44 44 44 00 00 00 00  returns 0x00 (0000ms, 0236ms total)
T3BA0 000:491 JLINK_ReadMem (0x40010C0C, 0x0004 Bytes, ...) -- CPU_ReadMem(4 bytes @ 0x40010C0C) - Data: 10 00 00 00  returns 0x00 (0001ms, 0237ms total)
T3BA0 000:492 JLINK_ReadMem (0x40010C18, 0x0004 Bytes, ...) -- CPU_ReadMem(4 bytes @ 0x40010C18) - Data: 00 00 00 00  returns 0x00 (0000ms, 0237ms total)
T3BA0 000:526 JLINK_ReadMem (0x40011800, 0x000C Bytes, ...) -- CPU_ReadMem(12 bytes @ 0x40011800) - Data: 44 44 44 44 44 44 44 44 00 00 00 00  returns 0x00 (0000ms, 0237ms total)
T3BA0 000:526 JLINK_ReadMem (0x4001180C, 0x0004 Bytes, ...) -- CPU_ReadMem(4 bytes @ 0x4001180C) - Data: 00 00 00 00  returns 0x00 (0001ms, 0238ms total)
T3BA0 000:527 JLINK_ReadMem (0x40011818, 0x0004 Bytes, ...) -- CPU_ReadMem(4 bytes @ 0x40011818) - Data: 00 00 00 00  returns 0x00 (0000ms, 0238ms total)
T04BC 001:553 JLINK_SetBPEx(Addr = 0x080036AC, Type = 0xFFFFFFF2)  returns 0x00000001 (0000ms, 0238ms total)
T04BC 001:553 JLINK_SetBPEx(Addr = 0x08000542, Type = 0xFFFFFFF2)  returns 0x00000002 (0000ms, 0238ms total)
T04BC 001:553 JLINK_Go() -- CPU_ReadMem(4 bytes @ 0xE0001000) -- CPU_WriteMem(4 bytes @ 0xE0002008) -- CPU_WriteMem(4 bytes @ 0xE000200C) -- CPU_WriteMem(4 bytes @ 0xE0002010) -- CPU_WriteMem(4 bytes @ 0xE0002014) -- CPU_WriteMem(4 bytes @ 0xE0002018) -- CPU_WriteMem(4 bytes @ 0xE000201C) -- CPU_WriteMem(4 bytes @ 0xE0001004) (0002ms, 0240ms total)
T04BC 001:656 JLINK_IsHalted()  returns TRUE (0002ms, 0242ms total)
T04BC 001:659 JLINK_Halt()  returns 0x00 (0000ms, 0240ms total)
T04BC 001:659 JLINK_IsHalted()  returns TRUE (0000ms, 0240ms total)
T04BC 001:659 JLINK_IsHalted()  returns TRUE (0000ms, 0240ms total)
T04BC 001:659 JLINK_IsHalted()  returns TRUE (0000ms, 0240ms total)
T04BC 001:659 JLINK_ReadReg(R15 (PC))  returns 0x080036AC (0000ms, 0240ms total)
T04BC 001:659 JLINK_ReadReg(XPSR)  returns 0x61000000 (0000ms, 0240ms total)
T04BC 001:659 JLINK_ClrBPEx(BPHandle = 0x00000001)  returns 0x00 (0000ms, 0240ms total)
T04BC 001:659 JLINK_ClrBPEx(BPHandle = 0x00000002)  returns 0x00 (0000ms, 0240ms total)
T04BC 001:659 JLINK_ReadMemU32(0xE000ED30, 0x0001 Items, ...) -- CPU_ReadMem(4 bytes @ 0xE000ED30) - Data: 02 00 00 00  returns 0x01 (0001ms, 0241ms total)
T04BC 001:660 JLINK_ReadMemU32(0xE0001028, 0x0001 Items, ...) -- CPU_ReadMem(4 bytes @ 0xE0001028) - Data: 00 00 00 00  returns 0x01 (0000ms, 0241ms total)
T04BC 001:660 JLINK_ReadMemU32(0xE0001038, 0x0001 Items, ...) -- CPU_ReadMem(4 bytes @ 0xE0001038) - Data: 00 02 00 00  returns 0x01 (0001ms, 0242ms total)
T04BC 001:661 JLINK_ReadMemU32(0xE0001048, 0x0001 Items, ...) -- CPU_ReadMem(4 bytes @ 0xE0001048) - Data: 00 00 00 00  returns 0x01 (0001ms, 0243ms total)
T04BC 001:662 JLINK_ReadMemU32(0xE0001058, 0x0001 Items, ...) -- CPU_ReadMem(4 bytes @ 0xE0001058) - Data: 00 00 00 00  returns 0x01 (0000ms, 0243ms total)
T04BC 001:663 JLINK_ReadReg(R0)  returns 0x080036AD (0000ms, 0243ms total)
T04BC 001:663 JLINK_ReadReg(R1)  returns 0x200076D0 (0000ms, 0243ms total)
T04BC 001:663 JLINK_ReadReg(R2)  returns 0x00000000 (0000ms, 0243ms total)
T04BC 001:663 JLINK_ReadReg(R3)  returns 0x08003651 (0000ms, 0243ms total)
T04BC 001:663 JLINK_ReadReg(R4)  returns 0x08006F60 (0000ms, 0243ms total)
T04BC 001:663 JLINK_ReadReg(R5)  returns 0x08006F60 (0000ms, 0243ms total)
T04BC 001:663 JLINK_ReadReg(R6)  returns 0x00000000 (0000ms, 0243ms total)
T04BC 001:663 JLINK_ReadReg(R7)  returns 0x00000000 (0000ms, 0243ms total)
T04BC 001:663 JLINK_ReadReg(R8)  returns 0x00000000 (0000ms, 0243ms total)
T04BC 001:663 JLINK_ReadReg(R9)  returns 0x20000160 (0000ms, 0243ms total)
T04BC 001:663 JLINK_ReadReg(R10)  returns 0x00000000 (0000ms, 0243ms total)
T04BC 001:663 JLINK_ReadReg(R11)  returns 0x00000000 (0000ms, 0243ms total)
T04BC 001:663 JLINK_ReadReg(R12)  returns 0x00000000 (0000ms, 0243ms total)
T04BC 001:663 JLINK_ReadReg(R13 (SP))  returns 0x200076D0 (0000ms, 0243ms total)
T04BC 001:663 JLINK_ReadReg(R14)  returns 0x080002A1 (0000ms, 0243ms total)
T04BC 001:663 JLINK_ReadReg(R15 (PC))  returns 0x080036AC (0000ms, 0243ms total)
T04BC 001:663 JLINK_ReadReg(XPSR)  returns 0x61000000 (0000ms, 0243ms total)
T04BC 001:663 JLINK_ReadReg(MSP)  returns 0x200076D0 (0001ms, 0244ms total)
T04BC 001:664 JLINK_ReadReg(PSP)  returns 0x20001000 (0000ms, 0244ms total)
T04BC 001:664 JLINK_ReadReg(CFBP)  returns 0x00000000 (0000ms, 0244ms total)
T3BA0 001:689 JLINK_ReadMem (0x40010C00, 0x000C Bytes, ...) -- CPU_ReadMem(12 bytes @ 0x40010C00) - Data: 44 44 48 44 44 44 44 44 00 00 00 00  returns 0x00 (0001ms, 0245ms total)
T3BA0 001:690 JLINK_ReadMem (0x40010C0C, 0x0004 Bytes, ...) -- CPU_ReadMem(4 bytes @ 0x40010C0C) - Data: 10 00 00 00  returns 0x00 (0001ms, 0246ms total)
T3BA0 001:691 JLINK_ReadMem (0x40010C18, 0x0004 Bytes, ...) -- CPU_ReadMem(4 bytes @ 0x40010C18) - Data: 00 00 00 00  returns 0x00 (0000ms, 0246ms total)
T3BA0 001:692 JLINK_ReadMem (0x40011800, 0x000C Bytes, ...) -- CPU_ReadMem(12 bytes @ 0x40011800) - Data: 44 44 44 44 44 44 44 44 00 00 00 00  returns 0x00 (0001ms, 0247ms total)
T3BA0 001:693 JLINK_ReadMem (0x4001180C, 0x0004 Bytes, ...) -- CPU_ReadMem(4 bytes @ 0x4001180C) - Data: 00 00 00 00  returns 0x00 (0001ms, 0248ms total)
T3BA0 001:694 JLINK_ReadMem (0x40011818, 0x0004 Bytes, ...) -- CPU_ReadMem(4 bytes @ 0x40011818) - Data: 00 00 00 00  returns 0x00 (0001ms, 0249ms total)
T04BC 010:327 JLINK_SetBPEx(Addr = 0x08000542, Type = 0xFFFFFFF2)  returns 0x00000003 (0001ms, 0250ms total)
T04BC 010:328 JLINK_Go() -- CPU_ReadMem(4 bytes @ 0xE0001000) -- CPU_WriteMem(4 bytes @ 0xE0002008) -- CPU_WriteMem(4 bytes @ 0xE000200C) (0002ms, 0252ms total)
T04BC 010:431 JLINK_IsHalted()  returns FALSE (0000ms, 0252ms total)
T04BC 010:532 JLINK_IsHalted()  returns FALSE (0000ms, 0252ms total)
T04BC 010:633 JLINK_IsHalted()  returns FALSE (0000ms, 0252ms total)
T04BC 010:734 JLINK_IsHalted()  returns TRUE (0002ms, 0254ms total)
T04BC 010:736 JLINK_Halt()  returns 0x00 (0000ms, 0252ms total)
T04BC 010:736 JLINK_IsHalted()  returns TRUE (0000ms, 0252ms total)
T04BC 010:736 JLINK_IsHalted()  returns TRUE (0000ms, 0252ms total)
T04BC 010:736 JLINK_IsHalted()  returns TRUE (0000ms, 0252ms total)
T04BC 010:736 JLINK_ReadReg(R15 (PC))  returns 0x08000542 (0000ms, 0252ms total)
T04BC 010:736 JLINK_ReadReg(XPSR)  returns 0x61000000 (0000ms, 0252ms total)
T04BC 010:736 JLINK_ClrBPEx(BPHandle = 0x00000003)  returns 0x00 (0000ms, 0252ms total)
T04BC 010:736 JLINK_ReadMemU32(0xE000ED30, 0x0001 Items, ...) -- CPU_ReadMem(4 bytes @ 0xE000ED30) - Data: 02 00 00 00  returns 0x01 (0001ms, 0253ms total)
T04BC 010:737 JLINK_ReadMemU32(0xE0001028, 0x0001 Items, ...) -- CPU_ReadMem(4 bytes @ 0xE0001028) - Data: 00 00 00 00  returns 0x01 (0001ms, 0254ms total)
T04BC 010:738 JLINK_ReadMemU32(0xE0001038, 0x0001 Items, ...) -- CPU_ReadMem(4 bytes @ 0xE0001038) - Data: 00 02 00 00  returns 0x01 (0000ms, 0254ms total)
T04BC 010:738 JLINK_ReadMemU32(0xE0001048, 0x0001 Items, ...) -- CPU_ReadMem(4 bytes @ 0xE0001048) - Data: 00 00 00 00  returns 0x01 (0001ms, 0255ms total)
T04BC 010:739 JLINK_ReadMemU32(0xE0001058, 0x0001 Items, ...) -- CPU_ReadMem(4 bytes @ 0xE0001058) - Data: 00 00 00 00  returns 0x01 (0001ms, 0256ms total)
T04BC 010:740 JLINK_ReadReg(R0)  returns 0x00000000 (0000ms, 0256ms total)
T04BC 010:740 JLINK_ReadReg(R1)  returns 0x20000060 (0000ms, 0256ms total)
T04BC 010:740 JLINK_ReadReg(R2)  returns 0x20002168 (0000ms, 0256ms total)
T04BC 010:740 JLINK_ReadReg(R3)  returns 0x20005658 (0000ms, 0256ms total)
T04BC 010:740 JLINK_ReadReg(R4)  returns 0xA5A5A5A5 (0000ms, 0256ms total)
T04BC 010:740 JLINK_ReadReg(R5)  returns 0xA5A5A5A5 (0000ms, 0256ms total)
T04BC 010:740 JLINK_ReadReg(R6)  returns 0xA5A5A5A5 (0000ms, 0256ms total)
T04BC 010:740 JLINK_ReadReg(R7)  returns 0xA5A5A5A5 (0000ms, 0256ms total)
T04BC 010:740 JLINK_ReadReg(R8)  returns 0xA5A5A5A5 (0000ms, 0256ms total)
T04BC 010:740 JLINK_ReadReg(R9)  returns 0xA5A5A5A5 (0000ms, 0256ms total)
T04BC 010:740 JLINK_ReadReg(R10)  returns 0xA5A5A5A5 (0000ms, 0256ms total)
T04BC 010:740 JLINK_ReadReg(R11)  returns 0xA5A5A5A5 (0000ms, 0256ms total)
T04BC 010:740 JLINK_ReadReg(R12)  returns 0xA5A5A5A5 (0000ms, 0256ms total)
T04BC 010:740 JLINK_ReadReg(R13 (SP))  returns 0x200018F8 (0000ms, 0256ms total)
T04BC 010:740 JLINK_ReadReg(R14)  returns 0x08006AA3 (0000ms, 0256ms total)
T04BC 010:740 JLINK_ReadReg(R15 (PC))  returns 0x08000542 (0000ms, 0256ms total)
T04BC 010:740 JLINK_ReadReg(XPSR)  returns 0x61000000 (0000ms, 0256ms total)
T04BC 010:740 JLINK_ReadReg(MSP)  returns 0x200076B0 (0000ms, 0256ms total)
T04BC 010:740 JLINK_ReadReg(PSP)  returns 0x200018F8 (0000ms, 0256ms total)
T04BC 010:740 JLINK_ReadReg(CFBP)  returns 0x02000000 (0000ms, 0256ms total)
T3BA0 010:741 JLINK_ReadMem (0x200018FC, 0x0004 Bytes, ...) -- CPU_ReadMem(64 bytes @ 0x200018C0) -- Updating C cache (64 bytes @ 0x200018C0) -- Read from C cache (4 bytes @ 0x200018FC) - Data: C9 44 00 08  returns 0x00 (0000ms, 0256ms total)
T3BA0 010:743 JLINK_ReadMem (0x2000190C, 0x0004 Bytes, ...) -- CPU_ReadMem(64 bytes @ 0x20001900) -- Updating C cache (64 bytes @ 0x20001900) -- Read from C cache (4 bytes @ 0x2000190C) - Data: 68 00 00 80  returns 0x00 (0001ms, 0257ms total)
T3BA0 010:744 JLINK_ReadMem (0x20001900, 0x0004 Bytes, ...) -- Read from C cache (4 bytes @ 0x20001900) - Data: A5 A5 A5 A5  returns 0x00 (0000ms, 0257ms total)
T3BA0 010:744 JLINK_ReadMem (0x20001904, 0x0004 Bytes, ...) -- Read from C cache (4 bytes @ 0x20001904) - Data: A5 A5 A5 A5  returns 0x00 (0000ms, 0257ms total)
T3BA0 010:744 JLINK_ReadMem (0x20001908, 0x0004 Bytes, ...) -- Read from C cache (4 bytes @ 0x20001908) - Data: 00 00 00 00  returns 0x00 (0000ms, 0257ms total)
T3BA0 010:744 JLINK_ReadMem (0x200018F8, 0x0004 Bytes, ...) -- Read from C cache (4 bytes @ 0x200018F8) - Data: 00 00 00 00  returns 0x00 (0000ms, 0257ms total)
T3BA0 010:744 JLINK_ReadMem (0x00000000, 0x0004 Bytes, ...) -- CPU_ReadMem(4 bytes @ 0x00000004) -- CPU_ReadMem(64 bytes @ 0x08000000) -- Updating C cache (64 bytes @ 0x08000000) -- Read from C cache (4 bytes @ 0x08000000) - Data: D0 76 00 20  returns 0x00 (0001ms, 0258ms total)
T3BA0 010:754 JLINK_ReadMem (0x40010C00, 0x000C Bytes, ...) -- CPU_ReadMem(12 bytes @ 0x40010C00) - Data: 44 44 48 44 44 44 44 44 F3 FE 00 00  returns 0x00 (0001ms, 0259ms total)
T3BA0 010:755 JLINK_ReadMem (0x40010C0C, 0x0004 Bytes, ...) -- CPU_ReadMem(4 bytes @ 0x40010C0C) - Data: 10 00 00 00  returns 0x00 (0001ms, 0260ms total)
T3BA0 010:756 JLINK_ReadMem (0x40010C18, 0x0004 Bytes, ...) -- CPU_ReadMem(4 bytes @ 0x40010C18) - Data: 00 00 00 00  returns 0x00 (0000ms, 0260ms total)
T3BA0 010:757 JLINK_ReadMem (0x40011800, 0x000C Bytes, ...) -- CPU_ReadMem(12 bytes @ 0x40011800) - Data: 44 44 44 44 44 44 44 44 00 00 00 00  returns 0x00 (0001ms, 0261ms total)
T3BA0 010:758 JLINK_ReadMem (0x4001180C, 0x0004 Bytes, ...) -- CPU_ReadMem(4 bytes @ 0x4001180C) - Data: 00 00 00 00  returns 0x00 (0000ms, 0261ms total)
T3BA0 010:758 JLINK_ReadMem (0x40011818, 0x0004 Bytes, ...) -- CPU_ReadMem(4 bytes @ 0x40011818) - Data: 00 00 00 00  returns 0x00 (0001ms, 0262ms total)
T3BA0 015:503 JLINK_ReadMem (0x080005AE, 0x0002 Bytes, ...) -- CPU_ReadMem(64 bytes @ 0x08000580) -- Updating C cache (64 bytes @ 0x08000580) -- Read from C cache (2 bytes @ 0x080005AE) - Data: 00 20  returns 0x00 (0001ms, 0263ms total)
T3BA0 015:504 JLINK_ReadMem (0x080005B0, 0x003C Bytes, ...) -- CPU_ReadMem(64 bytes @ 0x080005C0) -- Updating C cache (64 bytes @ 0x080005C0) -- Read from C cache (60 bytes @ 0x080005B0) - Data: 8D F8 11 00 8D F8 12 00 00 BF 17 E0 1A 4A 32 F8 ...  returns 0x00 (0001ms, 0264ms total)
T3BA0 016:501 JLINK_ReadMem (0x08000560, 0x003C Bytes, ...) -- CPU_ReadMem(64 bytes @ 0x08000540) -- Updating C cache (64 bytes @ 0x08000540) -- Read from C cache (60 bytes @ 0x08000560) - Data: F0 B5 A1 B0 05 46 0E 46 80 21 01 A8 FF F7 61 FE ...  returns 0x00 (0001ms, 0265ms total)
T3BA0 017:337 JLINK_ReadMem (0x0800059C, 0x003C Bytes, ...) -- Read from C cache (60 bytes @ 0x0800059C) - Data: 4D 20 8D F8 0E 00 00 20 8D F8 0F 00 01 20 8D F8 ...  returns 0x00 (0000ms, 0265ms total)
T3BA0 017:693 JLINK_ReadMem (0x080005F0, 0x003C Bytes, ...) -- CPU_ReadMem(64 bytes @ 0x08000600) -- Updating C cache (64 bytes @ 0x08000600) -- Read from C cache (60 bytes @ 0x080005F0) - Data: 57 21 0D F1 06 00 03 F0 35 F8 04 46 20 46 E1 17 ...  returns 0x00 (0001ms, 0266ms total)
T04BC 023:743 JLINK_Step() -- Read from C cache (2 bytes @ 0x08000542) -- CPU_ReadMem(4 bytes @ 0xE000ED18) -- CPU_WriteMem(4 bytes @ 0xE000ED18) -- CPU_ReadMem(4 bytes @ 0xE000ED18) -- CPU_WriteMem(4 bytes @ 0xE000ED18) -- CPU_ReadMem(4 bytes @ 0xE0001004) -- Read from C cache (4 bytes @ 0x08000558) -- Simulated  returns 0x00 (0003ms, 0269ms total)
T04BC 023:746 JLINK_ReadReg(R15 (PC))  returns 0x08000544 (0000ms, 0269ms total)
T04BC 023:746 JLINK_ReadReg(XPSR)  returns 0x61000000 (0000ms, 0269ms total)
T04BC 023:746 JLINK_SetBPEx(Addr = 0x08000542, Type = 0xFFFFFFF2)  returns 0x00000004 (0000ms, 0269ms total)
T04BC 023:746 JLINK_SetBPEx(Addr = 0x0800061C, Type = 0xFFFFFFF2)  returns 0x00000005 (0000ms, 0269ms total)
T04BC 023:746 JLINK_Go() -- CPU_ReadMem(4 bytes @ 0xE0001000) -- CPU_WriteMem(4 bytes @ 0xE000200C) -- CPU_WriteMem(4 bytes @ 0xE0001004) (0003ms, 0272ms total)
T04BC 023:850 JLINK_IsHalted()  returns TRUE (0002ms, 0274ms total)
T04BC 023:852 JLINK_Halt()  returns 0x00 (0000ms, 0272ms total)
T04BC 023:852 JLINK_IsHalted()  returns TRUE (0000ms, 0272ms total)
T04BC 023:852 JLINK_IsHalted()  returns TRUE (0000ms, 0272ms total)
T04BC 023:852 JLINK_IsHalted()  returns TRUE (0000ms, 0272ms total)
T04BC 023:852 JLINK_ReadReg(R15 (PC))  returns 0x0800061C (0000ms, 0272ms total)
T04BC 023:852 JLINK_ReadReg(XPSR)  returns 0x21000000 (0000ms, 0272ms total)
T04BC 023:852 JLINK_ClrBPEx(BPHandle = 0x00000004)  returns 0x00 (0000ms, 0272ms total)
T04BC 023:852 JLINK_ClrBPEx(BPHandle = 0x00000005)  returns 0x00 (0000ms, 0272ms total)
T04BC 023:853 JLINK_ReadMemU32(0xE000ED30, 0x0001 Items, ...) -- CPU_ReadMem(4 bytes @ 0xE000ED30) - Data: 02 00 00 00  returns 0x01 (0001ms, 0273ms total)
T04BC 023:854 JLINK_ReadMemU32(0xE0001028, 0x0001 Items, ...) -- CPU_ReadMem(4 bytes @ 0xE0001028) - Data: 00 00 00 00  returns 0x01 (0000ms, 0273ms total)
T04BC 023:854 JLINK_ReadMemU32(0xE0001038, 0x0001 Items, ...) -- CPU_ReadMem(4 bytes @ 0xE0001038) - Data: 00 02 00 00  returns 0x01 (0000ms, 0273ms total)
T04BC 023:854 JLINK_ReadMemU32(0xE0001048, 0x0001 Items, ...) -- CPU_ReadMem(4 bytes @ 0xE0001048) - Data: 00 00 00 00  returns 0x01 (0001ms, 0274ms total)
T04BC 023:855 JLINK_ReadMemU32(0xE0001058, 0x0001 Items, ...) -- CPU_ReadMem(4 bytes @ 0xE0001058) - Data: 00 00 00 00  returns 0x01 (0001ms, 0275ms total)
T04BC 023:856 JLINK_ReadReg(R0)  returns 0x0000003A (0000ms, 0275ms total)
T04BC 023:856 JLINK_ReadReg(R1)  returns 0x000000E9 (0000ms, 0275ms total)
T04BC 023:856 JLINK_ReadReg(R2)  returns 0x20001866 (0000ms, 0275ms total)
T04BC 023:856 JLINK_ReadReg(R3)  returns 0x00000057 (0000ms, 0275ms total)
T04BC 023:856 JLINK_ReadReg(R4)  returns 0x000054E9 (0000ms, 0275ms total)
T04BC 023:856 JLINK_ReadReg(R5)  returns 0x20000029 (0000ms, 0275ms total)
T04BC 023:856 JLINK_ReadReg(R6)  returns 0x00000001 (0000ms, 0275ms total)
T04BC 023:856 JLINK_ReadReg(R7)  returns 0x20001864 (0000ms, 0275ms total)
T04BC 023:856 JLINK_ReadReg(R8)  returns 0xA5A5A5A5 (0001ms, 0276ms total)
T04BC 023:857 JLINK_ReadReg(R9)  returns 0xA5A5A5A5 (0000ms, 0276ms total)
T04BC 023:857 JLINK_ReadReg(R10)  returns 0xA5A5A5A5 (0000ms, 0276ms total)
T04BC 023:857 JLINK_ReadReg(R11)  returns 0xA5A5A5A5 (0000ms, 0276ms total)
T04BC 023:857 JLINK_ReadReg(R12)  returns 0xA5A5A5A5 (0000ms, 0276ms total)
T04BC 023:857 JLINK_ReadReg(R13 (SP))  returns 0x20001860 (0000ms, 0276ms total)
T04BC 023:857 JLINK_ReadReg(R14)  returns 0x080005FB (0000ms, 0276ms total)
T04BC 023:857 JLINK_ReadReg(R15 (PC))  returns 0x0800061C (0000ms, 0276ms total)
T04BC 023:857 JLINK_ReadReg(XPSR)  returns 0x21000000 (0000ms, 0276ms total)
T04BC 023:857 JLINK_ReadReg(MSP)  returns 0x200076B0 (0000ms, 0276ms total)
T04BC 023:857 JLINK_ReadReg(PSP)  returns 0x20001860 (0000ms, 0276ms total)
T04BC 023:857 JLINK_ReadReg(CFBP)  returns 0x02000000 (0000ms, 0276ms total)
T3BA0 023:858 JLINK_ReadMem (0x200018F4, 0x0004 Bytes, ...) -- CPU_ReadMem(64 bytes @ 0x200018C0) -- Updating C cache (64 bytes @ 0x200018C0) -- Read from C cache (4 bytes @ 0x200018F4) - Data: 4D 05 00 08  returns 0x00 (0001ms, 0277ms total)
T3BA0 023:859 JLINK_ReadMem (0x200018E4, 0x0004 Bytes, ...) -- Read from C cache (4 bytes @ 0x200018E4) - Data: A5 A5 A5 A5  returns 0x00 (0000ms, 0277ms total)
T3BA0 023:859 JLINK_ReadMem (0x200018E8, 0x0004 Bytes, ...) -- Read from C cache (4 bytes @ 0x200018E8) - Data: A5 A5 A5 A5  returns 0x00 (0000ms, 0277ms total)
T3BA0 023:859 JLINK_ReadMem (0x200018EC, 0x0004 Bytes, ...) -- Read from C cache (4 bytes @ 0x200018EC) - Data: A5 A5 A5 A5  returns 0x00 (0000ms, 0277ms total)
T3BA0 023:859 JLINK_ReadMem (0x200018F0, 0x0004 Bytes, ...) -- Read from C cache (4 bytes @ 0x200018F0) - Data: A5 A5 A5 A5  returns 0x00 (0000ms, 0277ms total)
T3BA0 023:859 JLINK_ReadMem (0x200018FC, 0x0004 Bytes, ...) -- Read from C cache (4 bytes @ 0x200018FC) - Data: C9 44 00 08  returns 0x00 (0000ms, 0277ms total)
T3BA0 023:859 JLINK_ReadMem (0x20001994, 0x0004 Bytes, ...) -- CPU_ReadMem(64 bytes @ 0x20001980) -- Updating C cache (64 bytes @ 0x20001980) -- Read from C cache (4 bytes @ 0x20001994) - Data: 90 19 00 20  returns 0x00 (0001ms, 0278ms total)
T3BA0 023:860 JLINK_ReadMem (0x20001984, 0x0004 Bytes, ...) -- Read from C cache (4 bytes @ 0x20001984) - Data: C8 19 00 20  returns 0x00 (0000ms, 0278ms total)
T3BA0 023:860 JLINK_ReadMem (0x20001988, 0x0004 Bytes, ...) -- Read from C cache (4 bytes @ 0x20001988) - Data: 00 00 00 00  returns 0x00 (0000ms, 0278ms total)
T3BA0 023:860 JLINK_ReadMem (0x2000198C, 0x0004 Bytes, ...) -- Read from C cache (4 bytes @ 0x2000198C) - Data: 90 19 00 20  returns 0x00 (0001ms, 0279ms total)
T3BA0 023:861 JLINK_ReadMem (0x20001990, 0x0004 Bytes, ...) -- Read from C cache (4 bytes @ 0x20001990) - Data: FF FF FF FF  returns 0x00 (0000ms, 0279ms total)
T3BA0 023:879 JLINK_ReadMem (0x20000029, 0x0020 Bytes, ...) -- CPU_ReadMem(128 bytes @ 0x20000000) -- Updating C cache (128 bytes @ 0x20000000) -- Read from C cache (32 bytes @ 0x20000029) - Data: 00 00 00 00 00 00 00 78 19 00 20 E8 19 00 20 41 ...  returns 0x00 (0001ms, 0280ms total)
T3BA0 023:880 JLINK_ReadMem (0x20001864, 0x0020 Bytes, ...) -- CPU_ReadMem(128 bytes @ 0x20001840) -- Updating C cache (128 bytes @ 0x20001840) -- Read from C cache (32 bytes @ 0x20001864) - Data: AA 55 02 00 00 00 00 00 00 01 4D 00 01 00 00 00 ...  returns 0x00 (0002ms, 0282ms total)
T3BA0 023:882 JLINK_ReadMem (0x00000000, 0x0001 Bytes, ...) -- CPU_ReadMem(4 bytes @ 0x00000004) -- CPU_ReadMem(64 bytes @ 0x08000000) -- Updating C cache (64 bytes @ 0x08000000) -- Read from C cache (1 bytes @ 0x08000000) - Data: D0  returns 0x00 (0002ms, 0284ms total)
T3BA0 023:886 JLINK_ReadMem (0x200018F8, 0x0004 Bytes, ...) -- Read from C cache (4 bytes @ 0x200018F8) - Data: 00 00 00 00  returns 0x00 (0000ms, 0284ms total)
T3BA0 023:889 JLINK_ReadMem (0x40010C00, 0x000C Bytes, ...) -- CPU_ReadMem(12 bytes @ 0x40010C00) - Data: 44 44 48 44 44 44 44 44 F3 FE 00 00  returns 0x00 (0001ms, 0285ms total)
T3BA0 023:890 JLINK_ReadMem (0x40010C0C, 0x0004 Bytes, ...) -- CPU_ReadMem(4 bytes @ 0x40010C0C) - Data: 10 00 00 00  returns 0x00 (0000ms, 0285ms total)
T3BA0 023:890 JLINK_ReadMem (0x40010C18, 0x0004 Bytes, ...) -- CPU_ReadMem(4 bytes @ 0x40010C18) - Data: 00 00 00 00  returns 0x00 (0001ms, 0286ms total)
T3BA0 023:892 JLINK_ReadMem (0x40011800, 0x000C Bytes, ...) -- CPU_ReadMem(12 bytes @ 0x40011800) - Data: 44 44 44 44 44 44 44 44 00 00 00 00  returns 0x00 (0001ms, 0287ms total)
T3BA0 023:893 JLINK_ReadMem (0x4001180C, 0x0004 Bytes, ...) -- CPU_ReadMem(4 bytes @ 0x4001180C) - Data: 00 00 00 00  returns 0x00 (0001ms, 0288ms total)
T3BA0 023:894 JLINK_ReadMem (0x40011818, 0x0004 Bytes, ...) -- CPU_ReadMem(4 bytes @ 0x40011818) - Data: 00 00 00 00  returns 0x00 (0001ms, 0289ms total)
T3BA0 023:901 JLINK_ReadMem (0x0800061C, 0x003C Bytes, ...) -- CPU_ReadMem(128 bytes @ 0x08000600) -- Updating C cache (128 bytes @ 0x08000600) -- Read from C cache (60 bytes @ 0x0800061C) - Data: 5C 21 01 A8 02 F0 DE FE 21 B0 F0 BD 18 06 00 20 ...  returns 0x00 (0001ms, 0290ms total)
T04BC 025:050 JLINK_Step() -- Read from C cache (2 bytes @ 0x0800061C) -- CPU_ReadMem(4 bytes @ 0xE0001004) -- Simulated  returns 0x00 (0001ms, 0291ms total)
T04BC 025:051 JLINK_ReadReg(R15 (PC))  returns 0x0800061E (0000ms, 0291ms total)
T04BC 025:052 JLINK_ReadReg(XPSR)  returns 0x21000000 (0000ms, 0291ms total)
T04BC 025:052 JLINK_SetBPEx(Addr = 0x08000542, Type = 0xFFFFFFF2)  returns 0x00000006 (0000ms, 0291ms total)
T04BC 025:052 JLINK_SetBPEx(Addr = 0x0800061C, Type = 0xFFFFFFF2)  returns 0x00000007 (0000ms, 0291ms total)
T04BC 025:052 JLINK_Go() -- CPU_ReadMem(4 bytes @ 0xE0001000) -- CPU_WriteMem(4 bytes @ 0xE0001004) (0002ms, 0293ms total)
T04BC 025:156 JLINK_IsHalted()  returns FALSE (0000ms, 0293ms total)
T04BC 025:258 JLINK_IsHalted()  returns FALSE (0000ms, 0293ms total)
T04BC 025:359 JLINK_IsHalted()  returns FALSE (0000ms, 0293ms total)
T04BC 025:461 JLINK_IsHalted()  returns FALSE (0000ms, 0293ms total)
T04BC 025:562 JLINK_ReadMemU32(0xE0001004, 0x0001 Items, ...) -- CPU is running -- CPU_ReadMem(4 bytes @ 0xE0001004) - Data: BD C5 8B 03  returns 0x01 (0000ms, 0293ms total)
T3BA0 025:563 JLINK_ReadMem (0x200018F8, 0x0004 Bytes, ...) -- CPU is running -- CPU_ReadMem(4 bytes @ 0x200018F8) - Data: 00 00 00 00  returns 0x00 (0001ms, 0294ms total)
T3BA0 025:567 JLINK_ReadMem (0x40010C00, 0x000C Bytes, ...) -- CPU is running -- CPU_ReadMem(12 bytes @ 0x40010C00) - Data: 44 44 48 44 44 44 44 44 F3 FE 00 00  returns 0x00 (0001ms, 0295ms total)
T3BA0 025:568 JLINK_ReadMem (0x40010C0C, 0x0004 Bytes, ...) -- CPU is running -- CPU_ReadMem(4 bytes @ 0x40010C0C) - Data: 10 00 00 00  returns 0x00 (0001ms, 0296ms total)
T3BA0 025:569 JLINK_ReadMem (0x40010C18, 0x0004 Bytes, ...) -- CPU is running -- CPU_ReadMem(4 bytes @ 0x40010C18) - Data: 00 00 00 00  returns 0x00 (0000ms, 0296ms total)
T3BA0 025:570 JLINK_ReadMem (0x40011800, 0x000C Bytes, ...) -- CPU is running -- CPU_ReadMem(12 bytes @ 0x40011800) - Data: 44 44 44 44 44 44 44 44 00 00 00 00  returns 0x00 (0001ms, 0297ms total)
T3BA0 025:571 JLINK_ReadMem (0x4001180C, 0x0004 Bytes, ...) -- CPU is running -- CPU_ReadMem(4 bytes @ 0x4001180C) - Data: 00 00 00 00  returns 0x00 (0001ms, 0298ms total)
T3BA0 025:572 JLINK_ReadMem (0x40011818, 0x0004 Bytes, ...) -- CPU is running -- CPU_ReadMem(4 bytes @ 0x40011818) - Data: 00 00 00 00  returns 0x00 (0000ms, 0298ms total)
T04BC 025:573 JLINK_IsHalted()  returns FALSE (0001ms, 0299ms total)
T04BC 025:675 JLINK_IsHalted()  returns FALSE (0000ms, 0298ms total)
T04BC 025:777 JLINK_IsHalted()  returns FALSE (0000ms, 0298ms total)
T04BC 025:878 JLINK_IsHalted()  returns FALSE (0001ms, 0299ms total)
T04BC 025:979 JLINK_IsHalted()  returns FALSE (0001ms, 0299ms total)
T04BC 026:080 JLINK_ReadMemU32(0xE0001004, 0x0001 Items, ...) -- CPU is running - Data: BD C5 8B 03  returns 0x01 (0000ms, 0298ms total)
T3BA0 026:081 JLINK_ReadMem (0x200018F8, 0x0004 Bytes, ...) -- CPU is running -- CPU_ReadMem(4 bytes @ 0x200018F8) - Data: 00 00 00 00  returns 0x00 (0000ms, 0298ms total)
T3BA0 026:085 JLINK_ReadMem (0x40010C00, 0x000C Bytes, ...) -- CPU is running -- CPU_ReadMem(12 bytes @ 0x40010C00) - Data: 44 44 48 44 44 44 44 44 F3 FE 00 00  returns 0x00 (0002ms, 0300ms total)
T3BA0 026:087 JLINK_ReadMem (0x40010C0C, 0x0004 Bytes, ...) -- CPU is running -- CPU_ReadMem(4 bytes @ 0x40010C0C) - Data: 10 00 00 00  returns 0x00 (0000ms, 0300ms total)
T3BA0 026:087 JLINK_ReadMem (0x40010C18, 0x0004 Bytes, ...) -- CPU is running -- CPU_ReadMem(4 bytes @ 0x40010C18) - Data: 00 00 00 00  returns 0x00 (0001ms, 0301ms total)
T3BA0 026:088 JLINK_ReadMem (0x40011800, 0x000C Bytes, ...) -- CPU is running -- CPU_ReadMem(12 bytes @ 0x40011800) - Data: 44 44 44 44 44 44 44 44 00 00 00 00  returns 0x00 (0001ms, 0302ms total)
T3BA0 026:089 JLINK_ReadMem (0x4001180C, 0x0004 Bytes, ...) -- CPU is running -- CPU_ReadMem(4 bytes @ 0x4001180C) - Data: 00 00 00 00  returns 0x00 (0001ms, 0303ms total)
T3BA0 026:090 JLINK_ReadMem (0x40011818, 0x0004 Bytes, ...) -- CPU is running -- CPU_ReadMem(4 bytes @ 0x40011818) - Data: 00 00 00 00  returns 0x00 (0000ms, 0303ms total)
T04BC 026:092 JLINK_IsHalted()  returns FALSE (0000ms, 0303ms total)
T04BC 026:194 JLINK_IsHalted()  returns FALSE (0000ms, 0303ms total)
T04BC 026:295 JLINK_IsHalted()  returns FALSE (0001ms, 0304ms total)
T04BC 026:396 JLINK_IsHalted()  returns FALSE (0000ms, 0303ms total)
T04BC 026:497 JLINK_IsHalted()  returns FALSE (0001ms, 0304ms total)
T04BC 026:598 JLINK_ReadMemU32(0xE0001004, 0x0001 Items, ...) -- CPU is running - Data: BD C5 8B 03  returns 0x01 (0000ms, 0303ms total)
T3BA0 026:598 JLINK_ReadMem (0x200018F8, 0x0004 Bytes, ...) -- CPU is running -- CPU_ReadMem(4 bytes @ 0x200018F8) - Data: 00 00 00 00  returns 0x00 (0001ms, 0304ms total)
T3BA0 026:602 JLINK_ReadMem (0x40010C00, 0x000C Bytes, ...) -- CPU is running -- CPU_ReadMem(12 bytes @ 0x40010C00) - Data: 44 44 48 44 44 44 44 44 F3 FE 00 00  returns 0x00 (0001ms, 0305ms total)
T3BA0 026:603 JLINK_ReadMem (0x40010C0C, 0x0004 Bytes, ...) -- CPU is running -- CPU_ReadMem(4 bytes @ 0x40010C0C) - Data: 10 00 00 00  returns 0x00 (0001ms, 0306ms total)
T3BA0 026:604 JLINK_ReadMem (0x40010C18, 0x0004 Bytes, ...) -- CPU is running -- CPU_ReadMem(4 bytes @ 0x40010C18) - Data: 00 00 00 00  returns 0x00 (0000ms, 0306ms total)
T3BA0 026:605 JLINK_ReadMem (0x40011800, 0x000C Bytes, ...) -- CPU is running -- CPU_ReadMem(12 bytes @ 0x40011800) - Data: 44 44 44 44 44 44 44 44 00 00 00 00  returns 0x00 (0001ms, 0307ms total)
T3BA0 026:606 JLINK_ReadMem (0x4001180C, 0x0004 Bytes, ...) -- CPU is running -- CPU_ReadMem(4 bytes @ 0x4001180C) - Data: 00 00 00 00  returns 0x00 (0001ms, 0308ms total)
T3BA0 026:607 JLINK_ReadMem (0x40011818, 0x0004 Bytes, ...) -- CPU is running -- CPU_ReadMem(4 bytes @ 0x40011818) - Data: 00 00 00 00  returns 0x00 (0000ms, 0308ms total)
T04BC 026:610 JLINK_IsHalted()  returns FALSE (0001ms, 0309ms total)
T04BC 026:712 JLINK_IsHalted()  returns FALSE (0001ms, 0309ms total)
T04BC 026:814 JLINK_IsHalted()  returns FALSE (0000ms, 0308ms total)
T04BC 026:915 JLINK_IsHalted()  returns FALSE (0001ms, 0309ms total)
T04BC 027:016 JLINK_IsHalted()  returns FALSE (0001ms, 0309ms total)
T04BC 027:118 JLINK_ReadMemU32(0xE0001004, 0x0001 Items, ...) -- CPU is running - Data: BD C5 8B 03  returns 0x01 (0000ms, 0308ms total)
T3BA0 027:118 JLINK_ReadMem (0x200018F8, 0x0004 Bytes, ...) -- CPU is running -- CPU_ReadMem(4 bytes @ 0x200018F8) - Data: 00 00 00 00  returns 0x00 (0000ms, 0308ms total)
T3BA0 027:119 JLINK_ReadMem (0x40010C00, 0x000C Bytes, ...) -- CPU is running -- CPU_ReadMem(12 bytes @ 0x40010C00) - Data: 44 44 48 44 44 44 44 44 F3 FE 00 00  returns 0x00 (0001ms, 0309ms total)
T3BA0 027:120 JLINK_ReadMem (0x40010C0C, 0x0004 Bytes, ...) -- CPU is running -- CPU_ReadMem(4 bytes @ 0x40010C0C) - Data: 10 00 00 00  returns 0x00 (0000ms, 0309ms total)
T3BA0 027:120 JLINK_ReadMem (0x40010C18, 0x0004 Bytes, ...) -- CPU is running -- CPU_ReadMem(4 bytes @ 0x40010C18) - Data: 00 00 00 00  returns 0x00 (0000ms, 0309ms total)
T3BA0 027:121 JLINK_ReadMem (0x40011800, 0x000C Bytes, ...) -- CPU is running -- CPU_ReadMem(12 bytes @ 0x40011800) - Data: 44 44 44 44 44 44 44 44 00 00 00 00  returns 0x00 (0000ms, 0309ms total)
T3BA0 027:121 JLINK_ReadMem (0x4001180C, 0x0004 Bytes, ...) -- CPU is running -- CPU_ReadMem(4 bytes @ 0x4001180C) - Data: 00 00 00 00  returns 0x00 (0001ms, 0310ms total)
T3BA0 027:122 JLINK_ReadMem (0x40011818, 0x0004 Bytes, ...) -- CPU is running -- CPU_ReadMem(4 bytes @ 0x40011818) - Data: 00 00 00 00  returns 0x00 (0000ms, 0310ms total)
T04BC 027:122 JLINK_IsHalted()  returns FALSE (0001ms, 0311ms total)
T04BC 027:223 JLINK_IsHalted()  returns FALSE (0001ms, 0311ms total)
T04BC 027:324 JLINK_IsHalted()  returns FALSE (0001ms, 0311ms total)
T04BC 027:426 JLINK_IsHalted()  returns FALSE (0000ms, 0310ms total)
T04BC 027:528 JLINK_IsHalted()  returns FALSE (0000ms, 0310ms total)
T04BC 027:629 JLINK_ReadMemU32(0xE0001004, 0x0001 Items, ...) -- CPU is running - Data: BD C5 8B 03  returns 0x01 (0000ms, 0310ms total)
T3BA0 027:629 JLINK_ReadMem (0x200018F8, 0x0004 Bytes, ...) -- CPU is running -- CPU_ReadMem(4 bytes @ 0x200018F8) - Data: 00 00 00 00  returns 0x00 (0001ms, 0311ms total)
T3BA0 027:633 JLINK_ReadMem (0x40010C00, 0x000C Bytes, ...) -- CPU is running -- CPU_ReadMem(12 bytes @ 0x40010C00) - Data: 44 44 48 44 44 44 44 44 F3 FE 00 00  returns 0x00 (0001ms, 0312ms total)
T3BA0 027:634 JLINK_ReadMem (0x40010C0C, 0x0004 Bytes, ...) -- CPU is running -- CPU_ReadMem(4 bytes @ 0x40010C0C) - Data: 10 00 00 00  returns 0x00 (0001ms, 0313ms total)
T3BA0 027:635 JLINK_ReadMem (0x40010C18, 0x0004 Bytes, ...) -- CPU is running -- CPU_ReadMem(4 bytes @ 0x40010C18) - Data: 00 00 00 00  returns 0x00 (0001ms, 0314ms total)
T3BA0 027:636 JLINK_ReadMem (0x40011800, 0x000C Bytes, ...) -- CPU is running -- CPU_ReadMem(12 bytes @ 0x40011800) - Data: 44 44 44 44 44 44 44 44 00 00 00 00  returns 0x00 (0001ms, 0315ms total)
T3BA0 027:637 JLINK_ReadMem (0x4001180C, 0x0004 Bytes, ...) -- CPU is running -- CPU_ReadMem(4 bytes @ 0x4001180C) - Data: 00 00 00 00  returns 0x00 (0001ms, 0316ms total)
T3BA0 027:638 JLINK_ReadMem (0x40011818, 0x0004 Bytes, ...) -- CPU is running -- CPU_ReadMem(4 bytes @ 0x40011818) - Data: 00 00 00 00  returns 0x00 (0001ms, 0317ms total)
T04BC 027:640 JLINK_IsHalted()  returns FALSE (0000ms, 0317ms total)
T04BC 027:741 JLINK_IsHalted()  returns FALSE (0000ms, 0317ms total)
T04BC 027:842 JLINK_IsHalted()  returns FALSE (0000ms, 0317ms total)
T04BC 027:943 JLINK_IsHalted()  returns FALSE (0000ms, 0317ms total)
T04BC 028:044 JLINK_IsHalted()  returns FALSE (0001ms, 0318ms total)
T04BC 028:145 JLINK_ReadMemU32(0xE0001004, 0x0001 Items, ...) -- CPU is running - Data: BD C5 8B 03  returns 0x01 (0000ms, 0317ms total)
T3BA0 028:146 JLINK_ReadMem (0x200018F8, 0x0004 Bytes, ...) -- CPU is running -- CPU_ReadMem(4 bytes @ 0x200018F8) - Data: 00 00 00 00  returns 0x00 (0001ms, 0318ms total)
T3BA0 028:150 JLINK_ReadMem (0x40010C00, 0x000C Bytes, ...) -- CPU is running -- CPU_ReadMem(12 bytes @ 0x40010C00) - Data: 44 44 48 44 44 44 44 44 F3 FE 00 00  returns 0x00 (0001ms, 0319ms total)
T3BA0 028:151 JLINK_ReadMem (0x40010C0C, 0x0004 Bytes, ...) -- CPU is running -- CPU_ReadMem(4 bytes @ 0x40010C0C) - Data: 10 00 00 00  returns 0x00 (0001ms, 0320ms total)
T3BA0 028:152 JLINK_ReadMem (0x40010C18, 0x0004 Bytes, ...) -- CPU is running -- CPU_ReadMem(4 bytes @ 0x40010C18) - Data: 00 00 00 00  returns 0x00 (0001ms, 0321ms total)
T3BA0 028:154 JLINK_ReadMem (0x40011800, 0x000C Bytes, ...) -- CPU is running -- CPU_ReadMem(12 bytes @ 0x40011800) - Data: 44 44 44 44 44 44 44 44 00 00 00 00  returns 0x00 (0001ms, 0322ms total)
T3BA0 028:155 JLINK_ReadMem (0x4001180C, 0x0004 Bytes, ...) -- CPU is running -- CPU_ReadMem(4 bytes @ 0x4001180C) - Data: 00 00 00 00  returns 0x00 (0000ms, 0322ms total)
T3BA0 028:155 JLINK_ReadMem (0x40011818, 0x0004 Bytes, ...) -- CPU is running -- CPU_ReadMem(4 bytes @ 0x40011818) - Data: 00 00 00 00  returns 0x00 (0001ms, 0323ms total)
T04BC 028:157 JLINK_IsHalted()  returns FALSE (0001ms, 0324ms total)
T04BC 028:259 JLINK_IsHalted()  returns FALSE (0001ms, 0324ms total)
T04BC 028:360 JLINK_IsHalted()  returns FALSE (0001ms, 0324ms total)
T04BC 028:461 JLINK_IsHalted()  returns FALSE (0000ms, 0323ms total)
T04BC 028:562 JLINK_IsHalted()  returns FALSE (0001ms, 0324ms total)
T04BC 028:664 JLINK_ReadMemU32(0xE0001004, 0x0001 Items, ...) -- CPU is running - Data: BD C5 8B 03  returns 0x01 (0000ms, 0323ms total)
T3BA0 028:664 JLINK_ReadMem (0x200018F8, 0x0004 Bytes, ...) -- CPU is running -- CPU_ReadMem(4 bytes @ 0x200018F8) - Data: 00 00 00 00  returns 0x00 (0001ms, 0324ms total)
T3BA0 028:668 JLINK_ReadMem (0x40010C00, 0x000C Bytes, ...) -- CPU is running -- CPU_ReadMem(12 bytes @ 0x40010C00) - Data: 44 44 48 44 44 44 44 44 F3 FE 00 00  returns 0x00 (0000ms, 0324ms total)
T3BA0 028:668 JLINK_ReadMem (0x40010C0C, 0x0004 Bytes, ...) -- CPU is running -- CPU_ReadMem(4 bytes @ 0x40010C0C) - Data: 10 00 00 00  returns 0x00 (0002ms, 0326ms total)
T3BA0 028:670 JLINK_ReadMem (0x40010C18, 0x0004 Bytes, ...) -- CPU is running -- CPU_ReadMem(4 bytes @ 0x40010C18) - Data: 00 00 00 00  returns 0x00 (0000ms, 0326ms total)
T3BA0 028:672 JLINK_ReadMem (0x40011800, 0x000C Bytes, ...) -- CPU is running -- CPU_ReadMem(12 bytes @ 0x40011800) - Data: 44 44 44 44 44 44 44 44 00 00 00 00  returns 0x00 (0000ms, 0326ms total)
T3BA0 028:672 JLINK_ReadMem (0x4001180C, 0x0004 Bytes, ...) -- CPU is running -- CPU_ReadMem(4 bytes @ 0x4001180C) - Data: 00 00 00 00  returns 0x00 (0001ms, 0327ms total)
T3BA0 028:673 JLINK_ReadMem (0x40011818, 0x0004 Bytes, ...) -- CPU is running -- CPU_ReadMem(4 bytes @ 0x40011818) - Data: 00 00 00 00  returns 0x00 (0001ms, 0328ms total)
T04BC 028:675 JLINK_IsHalted()  returns FALSE (0001ms, 0329ms total)
T04BC 028:776 JLINK_IsHalted()  returns FALSE (0000ms, 0328ms total)
T04BC 028:878 JLINK_IsHalted()  returns FALSE (0000ms, 0328ms total)
T04BC 028:979 JLINK_IsHalted()  returns FALSE (0000ms, 0328ms total)
T04BC 029:080 JLINK_IsHalted()  returns FALSE (0000ms, 0328ms total)
T04BC 029:181 JLINK_ReadMemU32(0xE0001004, 0x0001 Items, ...) -- CPU is running - Data: BD C5 8B 03  returns 0x01 (0000ms, 0328ms total)
T3BA0 029:181 JLINK_ReadMem (0x200018F8, 0x0004 Bytes, ...) -- CPU is running -- CPU_ReadMem(4 bytes @ 0x200018F8) - Data: 00 00 00 00  returns 0x00 (0001ms, 0329ms total)
T3BA0 029:185 JLINK_ReadMem (0x40010C00, 0x000C Bytes, ...) -- CPU is running -- CPU_ReadMem(12 bytes @ 0x40010C00) - Data: 44 44 48 44 44 44 44 44 F3 FE 00 00  returns 0x00 (0002ms, 0331ms total)
T3BA0 029:187 JLINK_ReadMem (0x40010C0C, 0x0004 Bytes, ...) -- CPU is running -- CPU_ReadMem(4 bytes @ 0x40010C0C) - Data: 10 00 00 00  returns 0x00 (0000ms, 0331ms total)
T3BA0 029:187 JLINK_ReadMem (0x40010C18, 0x0004 Bytes, ...) -- CPU is running -- CPU_ReadMem(4 bytes @ 0x40010C18) - Data: 00 00 00 00  returns 0x00 (0001ms, 0332ms total)
T3BA0 029:189 JLINK_ReadMem (0x40011800, 0x000C Bytes, ...) -- CPU is running -- CPU_ReadMem(12 bytes @ 0x40011800) - Data: 44 44 44 44 44 44 44 44 00 00 00 00  returns 0x00 (0001ms, 0333ms total)
T3BA0 029:190 JLINK_ReadMem (0x4001180C, 0x0004 Bytes, ...) -- CPU is running -- CPU_ReadMem(4 bytes @ 0x4001180C) - Data: 00 00 00 00  returns 0x00 (0000ms, 0333ms total)
T3BA0 029:190 JLINK_ReadMem (0x40011818, 0x0004 Bytes, ...) -- CPU is running -- CPU_ReadMem(4 bytes @ 0x40011818) - Data: 00 00 00 00  returns 0x00 (0001ms, 0334ms total)
T04BC 029:193 JLINK_IsHalted()  returns FALSE (0000ms, 0334ms total)
T04BC 029:295 JLINK_IsHalted()  returns FALSE (0000ms, 0334ms total)
T04BC 029:396 JLINK_IsHalted()  returns FALSE (0000ms, 0334ms total)
T04BC 029:497 JLINK_IsHalted()  returns FALSE (0001ms, 0335ms total)
T04BC 029:599 JLINK_IsHalted()  returns FALSE (0000ms, 0334ms total)
T04BC 029:700 JLINK_ReadMemU32(0xE0001004, 0x0001 Items, ...) -- CPU is running - Data: BD C5 8B 03  returns 0x01 (0000ms, 0334ms total)
T3BA0 029:700 JLINK_ReadMem (0x200018F8, 0x0004 Bytes, ...) -- CPU is running -- CPU_ReadMem(4 bytes @ 0x200018F8) - Data: 00 00 00 00  returns 0x00 (0001ms, 0335ms total)
T3BA0 029:704 JLINK_ReadMem (0x40010C00, 0x000C Bytes, ...) -- CPU is running -- CPU_ReadMem(12 bytes @ 0x40010C00) - Data: 44 44 48 44 44 44 44 44 F3 FE 00 00  returns 0x00 (0001ms, 0336ms total)
T3BA0 029:705 JLINK_ReadMem (0x40010C0C, 0x0004 Bytes, ...) -- CPU is running -- CPU_ReadMem(4 bytes @ 0x40010C0C) - Data: 10 00 00 00  returns 0x00 (0001ms, 0337ms total)
T3BA0 029:707 JLINK_ReadMem (0x40010C18, 0x0004 Bytes, ...) -- CPU is running -- CPU_ReadMem(4 bytes @ 0x40010C18) - Data: 00 00 00 00  returns 0x00 (0000ms, 0337ms total)
T3BA0 029:708 JLINK_ReadMem (0x40011800, 0x000C Bytes, ...) -- CPU is running -- CPU_ReadMem(12 bytes @ 0x40011800) - Data: 44 44 44 44 44 44 44 44 00 00 00 00  returns 0x00 (0000ms, 0337ms total)
T3BA0 029:708 JLINK_ReadMem (0x4001180C, 0x0004 Bytes, ...) -- CPU is running -- CPU_ReadMem(4 bytes @ 0x4001180C) - Data: 00 00 00 00  returns 0x00 (0002ms, 0339ms total)
T3BA0 029:710 JLINK_ReadMem (0x40011818, 0x0004 Bytes, ...) -- CPU is running -- CPU_ReadMem(4 bytes @ 0x40011818) - Data: 00 00 00 00  returns 0x00 (0000ms, 0339ms total)
T04BC 029:712 JLINK_IsHalted()  returns FALSE (0000ms, 0339ms total)
T04BC 029:813 JLINK_IsHalted()  returns FALSE (0001ms, 0340ms total)
T04BC 029:914 JLINK_IsHalted()  returns FALSE (0001ms, 0340ms total)
T04BC 030:016 JLINK_IsHalted()  returns FALSE (0001ms, 0340ms total)
T04BC 030:117 JLINK_IsHalted()  returns TRUE (0002ms, 0341ms total)
T04BC 030:119 JLINK_Halt()  returns 0x00 (0000ms, 0339ms total)
T04BC 030:119 JLINK_IsHalted()  returns TRUE (0000ms, 0339ms total)
T04BC 030:119 JLINK_IsHalted()  returns TRUE (0000ms, 0339ms total)
T04BC 030:119 JLINK_IsHalted()  returns TRUE (0000ms, 0339ms total)
T04BC 030:119 JLINK_ReadReg(R15 (PC))  returns 0x08000542 (0000ms, 0339ms total)
T04BC 030:119 JLINK_ReadReg(XPSR)  returns 0x61000000 (0000ms, 0339ms total)
T04BC 030:119 JLINK_ClrBPEx(BPHandle = 0x00000006)  returns 0x00 (0000ms, 0339ms total)
T04BC 030:120 JLINK_ClrBPEx(BPHandle = 0x00000007)  returns 0x00 (0000ms, 0340ms total)
T04BC 030:120 JLINK_ReadMemU32(0xE000ED30, 0x0001 Items, ...) -- CPU_ReadMem(4 bytes @ 0xE000ED30) - Data: 02 00 00 00  returns 0x01 (0001ms, 0341ms total)
T04BC 030:121 JLINK_ReadMemU32(0xE0001028, 0x0001 Items, ...) -- CPU_ReadMem(4 bytes @ 0xE0001028) - Data: 00 00 00 00  returns 0x01 (0000ms, 0341ms total)
T04BC 030:121 JLINK_ReadMemU32(0xE0001038, 0x0001 Items, ...) -- CPU_ReadMem(4 bytes @ 0xE0001038) - Data: 00 02 00 00  returns 0x01 (0001ms, 0342ms total)
T04BC 030:122 JLINK_ReadMemU32(0xE0001048, 0x0001 Items, ...) -- CPU_ReadMem(4 bytes @ 0xE0001048) - Data: 00 00 00 00  returns 0x01 (0001ms, 0343ms total)
T04BC 030:123 JLINK_ReadMemU32(0xE0001058, 0x0001 Items, ...) -- CPU_ReadMem(4 bytes @ 0xE0001058) - Data: 00 00 00 00  returns 0x01 (0001ms, 0344ms total)
T04BC 030:124 JLINK_ReadReg(R0)  returns 0x00000000 (0000ms, 0344ms total)
T04BC 030:124 JLINK_ReadReg(R1)  returns 0x20000060 (0000ms, 0344ms total)
T04BC 030:124 JLINK_ReadReg(R2)  returns 0x20002168 (0000ms, 0344ms total)
T04BC 030:124 JLINK_ReadReg(R3)  returns 0x20005658 (0000ms, 0344ms total)
T04BC 030:124 JLINK_ReadReg(R4)  returns 0xA5A5A5A5 (0000ms, 0344ms total)
T04BC 030:124 JLINK_ReadReg(R5)  returns 0xA5A5A5A5 (0000ms, 0344ms total)
T04BC 030:124 JLINK_ReadReg(R6)  returns 0xA5A5A5A5 (0000ms, 0344ms total)
T04BC 030:124 JLINK_ReadReg(R7)  returns 0xA5A5A5A5 (0000ms, 0344ms total)
T04BC 030:124 JLINK_ReadReg(R8)  returns 0xA5A5A5A5 (0000ms, 0344ms total)
T04BC 030:124 JLINK_ReadReg(R9)  returns 0xA5A5A5A5 (0000ms, 0344ms total)
T04BC 030:124 JLINK_ReadReg(R10)  returns 0xA5A5A5A5 (0000ms, 0344ms total)
T04BC 030:124 JLINK_ReadReg(R11)  returns 0xA5A5A5A5 (0000ms, 0344ms total)
T04BC 030:124 JLINK_ReadReg(R12)  returns 0xA5A5A5A5 (0000ms, 0344ms total)
T04BC 030:124 JLINK_ReadReg(R13 (SP))  returns 0x200018F8 (0000ms, 0344ms total)
T04BC 030:124 JLINK_ReadReg(R14)  returns 0x08006AA3 (0000ms, 0344ms total)
T04BC 030:124 JLINK_ReadReg(R15 (PC))  returns 0x08000542 (0000ms, 0344ms total)
T04BC 030:124 JLINK_ReadReg(XPSR)  returns 0x61000000 (0000ms, 0344ms total)
T04BC 030:124 JLINK_ReadReg(MSP)  returns 0x200076B0 (0000ms, 0344ms total)
T04BC 030:124 JLINK_ReadReg(PSP)  returns 0x200018F8 (0000ms, 0344ms total)
T04BC 030:124 JLINK_ReadReg(CFBP)  returns 0x02000000 (0001ms, 0345ms total)
